Sample in Buffer,Sample in Window,TRIGGER,system_i/system_ila_0/inst/probe0_1[3:0],system_i/system_ila_0/inst/probe1_1[3:0],system_i/system_ila_0/inst/probe2_1[3:0],system_i/system_ila_0/inst/probe3_1,system_i/system_ila_0/inst/probe4_1
0,0,0,1,1,1,1,1
1,1,0,1,1,1,1,1
2,2,0,1,1,1,1,1
3,3,0,1,1,1,1,1
4,4,0,1,1,1,1,1
5,5,0,1,1,1,1,1
6,6,0,1,1,1,1,1
7,7,0,1,1,1,1,1
8,8,0,1,1,1,1,1
9,9,0,1,1,1,1,1
10,10,0,1,1,1,1,1
11,11,0,1,1,1,1,1
12,12,0,1,1,1,1,1
13,13,0,1,1,1,1,1
14,14,0,1,1,1,1,1
15,15,0,1,1,1,1,1
16,16,0,1,1,1,1,1
17,17,0,1,1,1,1,1
18,18,0,1,1,1,1,1
19,19,0,1,1,1,1,1
20,20,0,1,1,1,1,1
21,21,0,1,1,1,1,1
22,22,0,1,1,1,1,1
23,23,0,1,1,1,1,1
24,24,0,1,1,1,1,1
25,25,0,1,1,1,1,1
26,26,0,1,1,1,1,1
27,27,0,1,1,1,1,1
28,28,0,1,1,1,1,1
29,29,0,1,1,1,1,1
30,30,0,1,1,1,1,1
31,31,0,1,1,1,1,1
32,32,0,1,1,1,1,1
33,33,0,1,1,1,1,1
34,34,0,1,1,1,1,1
35,35,0,1,1,1,1,1
36,36,0,1,1,1,1,1
37,37,0,1,1,1,1,1
38,38,0,1,1,1,1,1
39,39,0,1,1,1,1,1
40,40,0,1,1,1,1,1
41,41,0,1,1,1,1,1
42,42,0,1,1,1,1,1
43,43,0,1,1,1,1,1
44,44,0,1,1,1,1,1
45,45,0,1,1,1,1,1
46,46,0,1,1,1,1,1
47,47,0,1,1,1,1,1
48,48,0,1,1,1,1,1
49,49,0,1,1,1,1,1
50,50,0,1,1,1,1,1
51,51,0,1,1,1,1,1
52,52,0,1,1,1,1,1
53,53,0,1,1,1,1,1
54,54,0,1,1,1,1,1
55,55,0,1,1,1,1,1
56,56,0,1,1,1,1,1
57,57,0,1,1,1,1,1
58,58,0,1,1,1,1,1
59,59,0,1,1,1,1,1
60,60,0,1,1,1,1,1
61,61,0,1,1,1,1,1
62,62,0,1,1,1,1,1
63,63,0,1,1,1,1,1
64,64,0,1,1,1,1,1
65,65,0,1,1,1,1,1
66,66,0,1,1,1,1,1
67,67,0,1,1,1,1,1
68,68,0,1,1,1,1,1
69,69,0,1,1,1,1,1
70,70,0,1,1,1,1,1
71,71,0,1,1,1,1,1
72,72,0,1,1,1,1,1
73,73,0,1,1,1,1,1
74,74,0,1,1,1,1,1
75,75,0,1,1,1,1,1
76,76,0,1,1,1,1,1
77,77,0,1,1,1,1,1
78,78,0,1,1,1,1,1
79,79,0,1,1,1,1,1
80,80,0,1,1,1,1,1
81,81,0,1,1,1,1,1
82,82,0,1,1,1,1,1
83,83,0,1,1,1,1,1
84,84,0,1,1,1,1,1
85,85,0,1,1,1,1,1
86,86,0,1,1,1,1,1
87,87,0,1,1,1,1,1
88,88,0,1,1,1,1,1
89,89,0,1,1,1,1,1
90,90,0,1,1,1,1,1
91,91,0,1,1,1,1,1
92,92,0,1,1,1,1,1
93,93,0,1,1,1,1,1
94,94,0,1,1,1,1,1
95,95,0,1,1,1,1,1
96,96,0,1,1,1,1,1
97,97,0,1,1,1,1,1
98,98,0,1,1,1,1,1
99,99,0,1,1,1,1,1
100,100,1,1,1,1,1,1
101,101,0,1,1,1,1,1
102,102,0,1,1,1,1,1
103,103,0,1,1,1,1,1
104,104,0,1,1,1,1,1
105,105,0,1,1,1,1,1
106,106,0,1,1,1,1,1
107,107,0,1,1,1,1,1
108,108,0,1,1,1,1,1
109,109,0,1,1,1,1,1
110,110,0,1,1,1,1,1
111,111,0,1,1,1,1,1
112,112,0,1,1,1,1,1
113,113,0,1,1,1,1,1
114,114,0,1,1,1,1,1
115,115,0,1,1,1,1,1
116,116,0,1,1,1,1,1
117,117,0,1,1,1,1,1
118,118,0,1,1,1,1,1
119,119,0,1,1,1,1,1
120,120,0,1,1,1,1,1
121,121,0,1,1,1,1,1
122,122,0,1,1,1,1,1
123,123,0,1,1,1,1,1
124,124,0,1,1,1,1,1
125,125,0,1,1,1,1,1
126,126,0,1,1,1,1,1
127,127,0,1,1,1,1,1
128,0,0,1,1,1,1,1
129,1,0,1,1,1,1,1
130,2,0,1,1,1,1,1
131,3,0,1,1,1,1,1
132,4,0,1,1,1,1,1
133,5,0,1,1,1,1,1
134,6,0,1,1,1,1,1
135,7,0,1,1,1,1,1
136,8,0,1,1,1,1,1
137,9,0,1,1,1,1,1
138,10,0,1,1,1,1,1
139,11,0,1,1,1,1,1
140,12,0,1,1,1,1,1
141,13,0,1,1,1,1,1
142,14,0,1,1,1,1,1
143,15,0,1,1,1,1,1
144,16,0,1,1,1,1,1
145,17,0,1,1,1,1,1
146,18,0,1,1,1,1,1
147,19,0,1,1,1,1,1
148,20,0,1,1,1,1,1
149,21,0,1,1,1,1,1
150,22,0,1,1,1,1,1
151,23,0,1,1,1,1,1
152,24,0,1,1,1,1,1
153,25,0,1,1,1,1,1
154,26,0,1,1,1,1,1
155,27,0,1,1,1,1,1
156,28,0,1,1,1,1,1
157,29,0,1,1,1,1,1
158,30,0,1,1,1,1,1
159,31,0,1,1,1,1,1
160,32,0,1,1,1,1,1
161,33,0,1,1,1,1,1
162,34,0,1,1,1,1,1
163,35,0,1,1,1,1,1
164,36,0,1,1,1,1,1
165,37,0,1,1,1,1,1
166,38,0,1,1,1,1,1
167,39,0,1,1,1,1,1
168,40,0,1,1,1,1,1
169,41,0,1,1,1,1,1
170,42,0,1,1,1,1,1
171,43,0,1,1,1,1,1
172,44,0,1,1,1,1,1
173,45,0,1,1,1,1,1
174,46,0,1,1,1,1,1
175,47,0,1,1,1,1,1
176,48,0,1,1,1,1,1
177,49,0,1,1,1,1,1
178,50,0,1,1,1,1,1
179,51,0,1,1,1,1,1
180,52,0,1,1,1,1,1
181,53,0,1,1,1,1,1
182,54,0,1,1,1,1,1
183,55,0,1,1,1,1,1
184,56,0,1,1,1,1,1
185,57,0,1,1,1,1,1
186,58,0,1,1,1,1,1
187,59,0,1,1,1,1,1
188,60,0,1,1,1,1,1
189,61,0,1,1,1,1,1
190,62,0,1,1,1,1,1
191,63,0,1,1,1,1,1
192,64,0,1,1,1,1,1
193,65,0,1,1,1,1,1
194,66,0,1,1,1,1,1
195,67,0,1,1,1,1,1
196,68,0,1,1,1,1,1
197,69,0,1,1,1,1,1
198,70,0,1,1,1,1,1
199,71,0,1,1,1,1,1
200,72,0,1,1,1,1,1
201,73,0,1,1,1,1,1
202,74,0,1,1,1,1,1
203,75,0,1,1,1,1,1
204,76,0,1,1,1,1,1
205,77,0,1,1,1,1,1
206,78,0,1,1,1,1,1
207,79,0,1,1,1,1,1
208,80,0,1,1,1,1,1
209,81,0,1,1,1,1,1
210,82,0,1,1,1,1,1
211,83,0,1,1,1,1,1
212,84,0,1,1,1,1,1
213,85,0,1,1,1,1,1
214,86,0,1,1,1,1,1
215,87,0,1,1,1,1,1
216,88,0,1,1,1,1,1
217,89,0,1,1,1,1,1
218,90,0,1,1,1,1,1
219,91,0,1,1,1,1,1
220,92,0,1,1,1,1,1
221,93,0,1,1,1,1,1
222,94,0,1,1,1,1,1
223,95,0,1,1,1,1,1
224,96,0,1,1,1,1,1
225,97,0,1,1,1,1,1
226,98,0,1,1,1,1,1
227,99,0,1,1,1,1,1
228,100,1,1,1,1,1,1
229,101,0,1,1,1,1,1
230,102,0,1,1,1,1,1
231,103,0,1,1,1,1,1
232,104,0,1,1,1,1,1
233,105,0,1,1,1,1,1
234,106,0,1,1,1,1,1
235,107,0,1,1,1,1,1
236,108,0,1,1,1,1,1
237,109,0,1,1,1,1,1
238,110,0,1,1,1,1,1
239,111,0,1,1,1,1,1
240,112,0,1,1,1,1,1
241,113,0,1,1,1,1,1
242,114,0,1,1,1,1,1
243,115,0,1,1,1,1,1
244,116,0,1,1,1,1,1
245,117,0,1,1,1,1,1
246,118,0,1,1,1,1,1
247,119,0,1,1,1,1,1
248,120,0,1,1,1,1,1
249,121,0,1,1,1,1,1
250,122,0,1,1,1,1,1
251,123,0,1,1,1,1,1
252,124,0,1,1,1,1,1
253,125,0,1,1,1,1,1
254,126,0,1,1,1,1,1
255,127,0,1,1,1,1,1
256,0,0,1,1,1,1,1
257,1,0,1,1,1,1,1
258,2,0,1,1,1,1,1
259,3,0,1,1,1,1,1
260,4,0,1,1,1,1,1
261,5,0,1,1,1,1,1
262,6,0,1,1,1,1,1
263,7,0,1,1,1,1,1
264,8,0,1,1,1,1,1
265,9,0,1,1,1,1,1
266,10,0,1,1,1,1,1
267,11,0,1,1,1,1,1
268,12,0,1,1,1,1,1
269,13,0,1,1,1,1,1
270,14,0,1,1,1,1,1
271,15,0,1,1,1,1,1
272,16,0,1,1,1,1,1
273,17,0,1,1,1,1,1
274,18,0,1,1,1,1,1
275,19,0,1,1,1,1,1
276,20,0,1,1,1,1,1
277,21,0,1,1,1,1,1
278,22,0,1,1,1,1,1
279,23,0,1,1,1,1,1
280,24,0,1,1,1,1,1
281,25,0,1,1,1,1,1
282,26,0,1,1,1,1,1
283,27,0,1,1,1,1,1
284,28,0,1,1,1,1,1
285,29,0,1,1,1,1,1
286,30,0,1,1,1,1,1
287,31,0,1,1,1,1,1
288,32,0,1,1,1,1,1
289,33,0,1,1,1,1,1
290,34,0,1,1,1,1,1
291,35,0,1,1,1,1,1
292,36,0,1,1,1,1,1
293,37,0,1,1,1,1,1
294,38,0,1,1,1,1,1
295,39,0,1,1,1,1,1
296,40,0,1,1,1,1,1
297,41,0,1,1,1,1,1
298,42,0,1,1,1,1,1
299,43,0,1,1,1,1,1
300,44,0,1,1,1,1,1
301,45,0,1,1,1,1,1
302,46,0,1,1,1,1,1
303,47,0,1,1,1,1,1
304,48,0,1,1,1,1,1
305,49,0,1,1,1,1,1
306,50,0,1,1,1,1,1
307,51,0,1,1,1,1,1
308,52,0,1,1,1,1,1
309,53,0,1,1,1,1,1
310,54,0,1,1,1,1,1
311,55,0,1,1,1,1,1
312,56,0,1,1,1,1,1
313,57,0,1,1,1,1,1
314,58,0,1,1,1,1,1
315,59,0,1,1,1,1,1
316,60,0,1,1,1,1,1
317,61,0,1,1,1,1,1
318,62,0,1,1,1,1,1
319,63,0,1,1,1,1,1
320,64,0,1,1,1,1,1
321,65,0,1,1,1,1,1
322,66,0,1,1,1,1,1
323,67,0,1,1,1,1,1
324,68,0,1,1,1,1,1
325,69,0,1,1,1,1,1
326,70,0,1,1,1,1,1
327,71,0,1,1,1,1,1
328,72,0,1,1,1,1,1
329,73,0,1,1,1,1,1
330,74,0,1,1,1,1,1
331,75,0,1,1,1,1,1
332,76,0,1,1,1,1,1
333,77,0,1,1,1,1,1
334,78,0,1,1,1,1,1
335,79,0,1,1,1,1,1
336,80,0,1,1,1,1,1
337,81,0,1,1,1,1,1
338,82,0,1,1,1,1,1
339,83,0,1,1,1,1,1
340,84,0,1,1,1,1,1
341,85,0,1,1,1,1,1
342,86,0,1,1,1,1,1
343,87,0,1,1,1,1,1
344,88,0,1,1,1,1,1
345,89,0,1,1,1,1,1
346,90,0,1,1,1,1,1
347,91,0,1,1,1,1,1
348,92,0,1,1,1,1,1
349,93,0,1,1,1,1,1
350,94,0,1,1,1,1,1
351,95,0,1,1,1,1,1
352,96,0,1,1,1,1,1
353,97,0,1,1,1,1,1
354,98,0,1,1,1,1,1
355,99,0,1,1,1,1,1
356,100,1,1,1,1,1,1
357,101,0,1,1,1,1,1
358,102,0,1,1,1,1,1
359,103,0,1,1,1,1,1
360,104,0,1,1,1,1,1
361,105,0,1,1,1,1,1
362,106,0,1,1,1,1,1
363,107,0,1,1,1,1,1
364,108,0,1,1,1,1,1
365,109,0,1,1,1,1,1
366,110,0,1,1,1,1,1
367,111,0,1,1,1,1,1
368,112,0,1,1,1,1,1
369,113,0,1,1,1,1,1
370,114,0,1,1,1,1,1
371,115,0,1,1,1,1,1
372,116,0,1,1,1,1,1
373,117,0,1,1,1,1,1
374,118,0,1,1,1,1,1
375,119,0,1,1,1,1,1
376,120,0,1,1,1,1,1
377,121,0,1,1,1,1,1
378,122,0,1,1,1,1,1
379,123,0,1,1,1,1,1
380,124,0,1,1,1,1,1
381,125,0,1,1,1,1,1
382,126,0,1,1,1,1,1
383,127,0,1,1,1,1,1
384,0,0,1,1,1,1,1
385,1,0,1,1,1,1,1
386,2,0,1,1,1,1,1
387,3,0,1,1,1,1,1
388,4,0,1,1,1,1,1
389,5,0,1,1,1,1,1
390,6,0,1,1,1,1,1
391,7,0,1,1,1,1,1
392,8,0,1,1,1,1,1
393,9,0,1,1,1,1,1
394,10,0,1,1,1,1,1
395,11,0,1,1,1,1,1
396,12,0,1,1,1,1,1
397,13,0,1,1,1,1,1
398,14,0,1,1,1,1,1
399,15,0,1,1,1,1,1
400,16,0,1,1,1,1,1
401,17,0,1,1,1,1,1
402,18,0,1,1,1,1,1
403,19,0,1,1,1,1,1
404,20,0,1,1,1,1,1
405,21,0,1,1,1,1,1
406,22,0,1,1,1,1,1
407,23,0,1,1,1,1,1
408,24,0,1,1,1,1,1
409,25,0,1,1,1,1,1
410,26,0,1,1,1,1,1
411,27,0,1,1,1,1,1
412,28,0,1,1,1,1,1
413,29,0,1,1,1,1,1
414,30,0,1,1,1,1,1
415,31,0,1,1,1,1,1
416,32,0,1,1,1,1,1
417,33,0,1,1,1,1,1
418,34,0,1,1,1,1,1
419,35,0,1,1,1,1,1
420,36,0,1,1,1,1,1
421,37,0,1,1,1,1,1
422,38,0,1,1,1,1,1
423,39,0,1,1,1,1,1
424,40,0,1,1,1,1,1
425,41,0,1,1,1,1,1
426,42,0,1,1,1,1,1
427,43,0,1,1,1,1,1
428,44,0,1,1,1,1,1
429,45,0,1,1,1,1,1
430,46,0,1,1,1,1,1
431,47,0,1,1,1,1,1
432,48,0,1,1,1,1,1
433,49,0,1,1,1,1,1
434,50,0,1,1,1,1,1
435,51,0,1,1,1,1,1
436,52,0,1,1,1,1,1
437,53,0,1,1,1,1,1
438,54,0,1,1,1,1,1
439,55,0,1,1,1,1,1
440,56,0,1,1,1,1,1
441,57,0,1,1,1,1,1
442,58,0,1,1,1,1,1
443,59,0,1,1,1,1,1
444,60,0,1,1,1,1,1
445,61,0,1,1,1,1,1
446,62,0,1,1,1,1,1
447,63,0,1,1,1,1,1
448,64,0,1,1,1,1,1
449,65,0,1,1,1,1,1
450,66,0,1,1,1,1,1
451,67,0,1,1,1,1,1
452,68,0,1,1,1,1,1
453,69,0,1,1,1,1,1
454,70,0,1,1,1,1,1
455,71,0,1,1,1,1,1
456,72,0,1,1,1,1,1
457,73,0,1,1,1,1,1
458,74,0,1,1,1,1,1
459,75,0,1,1,1,1,1
460,76,0,1,1,1,1,1
461,77,0,1,1,1,1,1
462,78,0,1,1,1,1,1
463,79,0,1,1,1,1,1
464,80,0,1,1,1,1,1
465,81,0,1,1,1,1,1
466,82,0,1,1,1,1,1
467,83,0,1,1,1,1,1
468,84,0,1,1,1,1,1
469,85,0,1,1,1,1,1
470,86,0,1,1,1,1,1
471,87,0,1,1,1,1,1
472,88,0,1,1,1,1,1
473,89,0,1,1,1,1,1
474,90,0,1,1,1,1,1
475,91,0,1,1,1,1,1
476,92,0,1,1,1,1,1
477,93,0,1,1,1,1,1
478,94,0,1,1,1,1,1
479,95,0,1,1,1,1,1
480,96,0,1,1,1,1,1
481,97,0,1,1,1,1,1
482,98,0,1,1,1,1,1
483,99,0,1,1,1,1,1
484,100,1,1,1,1,1,1
485,101,0,1,1,1,1,1
486,102,0,1,1,1,1,1
487,103,0,1,1,1,1,1
488,104,0,1,1,1,1,1
489,105,0,1,1,1,1,1
490,106,0,1,1,1,1,1
491,107,0,1,1,1,1,1
492,108,0,1,1,1,1,1
493,109,0,1,1,1,1,1
494,110,0,1,1,1,1,1
495,111,0,1,1,1,1,1
496,112,0,1,1,1,1,1
497,113,0,1,1,1,1,1
498,114,0,1,1,1,1,1
499,115,0,1,1,1,1,1
500,116,0,1,1,1,1,1
501,117,0,1,1,1,1,1
502,118,0,1,1,1,1,1
503,119,0,1,1,1,1,1
504,120,0,1,1,1,1,1
505,121,0,1,1,1,1,1
506,122,0,1,1,1,1,1
507,123,0,1,1,1,1,1
508,124,0,1,1,1,1,1
509,125,0,1,1,1,1,1
510,126,0,1,1,1,1,1
511,127,0,1,1,1,1,1
512,0,0,1,1,1,1,1
513,1,0,1,1,1,1,1
514,2,0,1,1,1,1,1
515,3,0,1,1,1,1,1
516,4,0,1,1,1,1,1
517,5,0,1,1,1,1,1
518,6,0,1,1,1,1,1
519,7,0,1,1,1,1,1
520,8,0,1,1,1,1,1
521,9,0,1,1,1,1,1
522,10,0,1,1,1,1,1
523,11,0,1,1,1,1,1
524,12,0,1,1,1,1,1
525,13,0,1,1,1,1,1
526,14,0,1,1,1,1,1
527,15,0,1,1,1,1,1
528,16,0,1,1,1,1,1
529,17,0,1,1,1,1,1
530,18,0,1,1,1,1,1
531,19,0,1,1,1,1,1
532,20,0,1,1,1,1,1
533,21,0,1,1,1,1,1
534,22,0,1,1,1,1,1
535,23,0,1,1,1,1,1
536,24,0,1,1,1,1,1
537,25,0,1,1,1,1,1
538,26,0,1,1,1,1,1
539,27,0,1,1,1,1,1
540,28,0,1,1,1,1,1
541,29,0,1,1,1,1,1
542,30,0,1,1,1,1,1
543,31,0,1,1,1,1,1
544,32,0,1,1,1,1,1
545,33,0,1,1,1,1,1
546,34,0,1,1,1,1,1
547,35,0,1,1,1,1,1
548,36,0,1,1,1,1,1
549,37,0,1,1,1,1,1
550,38,0,1,1,1,1,1
551,39,0,1,1,1,1,1
552,40,0,1,1,1,1,1
553,41,0,1,1,1,1,1
554,42,0,1,1,1,1,1
555,43,0,1,1,1,1,1
556,44,0,1,1,1,1,1
557,45,0,1,1,1,1,1
558,46,0,1,1,1,1,1
559,47,0,1,1,1,1,1
560,48,0,1,1,1,1,1
561,49,0,1,1,1,1,1
562,50,0,1,1,1,1,1
563,51,0,1,1,1,1,1
564,52,0,1,1,1,1,1
565,53,0,1,1,1,1,1
566,54,0,1,1,1,1,1
567,55,0,1,1,1,1,1
568,56,0,1,1,1,1,1
569,57,0,1,1,1,1,1
570,58,0,1,1,1,1,1
571,59,0,1,1,1,1,1
572,60,0,1,1,1,1,1
573,61,0,1,1,1,1,1
574,62,0,1,1,1,1,1
575,63,0,1,1,1,1,1
576,64,0,1,1,1,1,1
577,65,0,1,1,1,1,1
578,66,0,1,1,1,1,1
579,67,0,1,1,1,1,1
580,68,0,1,1,1,1,1
581,69,0,1,1,1,1,1
582,70,0,1,1,1,1,1
583,71,0,1,1,1,1,1
584,72,0,1,1,1,1,1
585,73,0,1,1,1,1,1
586,74,0,1,1,1,1,1
587,75,0,1,1,1,1,1
588,76,0,1,1,1,1,1
589,77,0,1,1,1,1,1
590,78,0,1,1,1,1,1
591,79,0,1,1,1,1,1
592,80,0,1,1,1,1,1
593,81,0,1,1,1,1,1
594,82,0,1,1,1,1,1
595,83,0,1,1,1,1,1
596,84,0,1,1,1,1,1
597,85,0,1,1,1,1,1
598,86,0,1,1,1,1,1
599,87,0,1,1,1,1,1
600,88,0,1,1,1,1,1
601,89,0,1,1,1,1,1
602,90,0,1,1,1,1,1
603,91,0,1,1,1,1,1
604,92,0,1,1,1,1,1
605,93,0,1,1,1,1,1
606,94,0,1,1,1,1,1
607,95,0,1,1,1,1,1
608,96,0,1,1,1,1,1
609,97,0,1,1,1,1,1
610,98,0,1,1,1,1,1
611,99,0,1,1,1,1,1
612,100,1,1,1,1,1,1
613,101,0,1,1,1,1,1
614,102,0,1,1,1,1,1
615,103,0,1,1,1,1,1
616,104,0,1,1,1,1,1
617,105,0,1,1,1,1,1
618,106,0,1,1,1,1,1
619,107,0,1,1,1,1,1
620,108,0,1,1,1,1,1
621,109,0,1,1,1,1,1
622,110,0,1,1,1,1,1
623,111,0,1,1,1,1,1
624,112,0,1,1,1,1,1
625,113,0,1,1,1,1,1
626,114,0,1,1,1,1,1
627,115,0,1,1,1,1,1
628,116,0,1,1,1,1,1
629,117,0,1,1,1,1,1
630,118,0,1,1,1,1,1
631,119,0,1,1,1,1,1
632,120,0,1,1,1,1,1
633,121,0,1,1,1,1,1
634,122,0,1,1,1,1,1
635,123,0,1,1,1,1,1
636,124,0,1,1,1,1,1
637,125,0,1,1,1,1,1
638,126,0,1,1,1,1,1
639,127,0,1,1,1,1,1
640,0,0,1,1,1,1,1
641,1,0,1,1,1,1,1
642,2,0,1,1,1,1,1
643,3,0,1,1,1,1,1
644,4,0,1,1,1,1,1
645,5,0,1,1,1,1,1
646,6,0,1,1,1,1,1
647,7,0,1,1,1,1,1
648,8,0,1,1,1,1,1
649,9,0,1,1,1,1,1
650,10,0,1,1,1,1,1
651,11,0,1,1,1,1,1
652,12,0,1,1,1,1,1
653,13,0,1,1,1,1,1
654,14,0,1,1,1,1,1
655,15,0,1,1,1,1,1
656,16,0,1,1,1,1,1
657,17,0,1,1,1,1,1
658,18,0,1,1,1,1,1
659,19,0,1,1,1,1,1
660,20,0,1,1,1,1,1
661,21,0,1,1,1,1,1
662,22,0,1,1,1,1,1
663,23,0,1,1,1,1,1
664,24,0,1,1,1,1,1
665,25,0,1,1,1,1,1
666,26,0,1,1,1,1,1
667,27,0,1,1,1,1,1
668,28,0,1,1,1,1,1
669,29,0,1,1,1,1,1
670,30,0,1,1,1,1,1
671,31,0,1,1,1,1,1
672,32,0,1,1,1,1,1
673,33,0,1,1,1,1,1
674,34,0,1,1,1,1,1
675,35,0,1,1,1,1,1
676,36,0,1,1,1,1,1
677,37,0,1,1,1,1,1
678,38,0,1,1,1,1,1
679,39,0,1,1,1,1,1
680,40,0,1,1,1,1,1
681,41,0,1,1,1,1,1
682,42,0,1,1,1,1,1
683,43,0,1,1,1,1,1
684,44,0,1,1,1,1,1
685,45,0,1,1,1,1,1
686,46,0,1,1,1,1,1
687,47,0,1,1,1,1,1
688,48,0,1,1,1,1,1
689,49,0,1,1,1,1,1
690,50,0,1,1,1,1,1
691,51,0,1,1,1,1,1
692,52,0,1,1,1,1,1
693,53,0,1,1,1,1,1
694,54,0,1,1,1,1,1
695,55,0,1,1,1,1,1
696,56,0,1,1,1,1,1
697,57,0,1,1,1,1,1
698,58,0,1,1,1,1,1
699,59,0,1,1,1,1,1
700,60,0,1,1,1,1,1
701,61,0,1,1,1,1,1
702,62,0,1,1,1,1,1
703,63,0,1,1,1,1,1
704,64,0,1,1,1,1,1
705,65,0,1,1,1,1,1
706,66,0,1,1,1,1,1
707,67,0,1,1,1,1,1
708,68,0,1,1,1,1,1
709,69,0,1,1,1,1,1
710,70,0,1,1,1,1,1
711,71,0,1,1,1,1,1
712,72,0,1,1,1,1,1
713,73,0,1,1,1,1,1
714,74,0,1,1,1,1,1
715,75,0,1,1,1,1,1
716,76,0,1,1,1,1,1
717,77,0,1,1,1,1,1
718,78,0,1,1,1,1,1
719,79,0,1,1,1,1,1
720,80,0,1,1,1,1,1
721,81,0,1,1,1,1,1
722,82,0,1,1,1,1,1
723,83,0,1,1,1,1,1
724,84,0,1,1,1,1,1
725,85,0,1,1,1,1,1
726,86,0,1,1,1,1,1
727,87,0,1,1,1,1,1
728,88,0,1,1,1,1,1
729,89,0,1,1,1,1,1
730,90,0,1,1,1,1,1
731,91,0,1,1,1,1,1
732,92,0,1,1,1,1,1
733,93,0,1,1,1,1,1
734,94,0,1,1,1,1,1
735,95,0,1,1,1,1,1
736,96,0,1,1,1,1,1
737,97,0,1,1,1,1,1
738,98,0,1,1,1,1,1
739,99,0,1,1,1,1,1
740,100,1,1,1,1,1,1
741,101,0,1,1,1,1,1
742,102,0,1,1,1,1,1
743,103,0,1,1,1,1,1
744,104,0,1,1,1,1,1
745,105,0,1,1,1,1,1
746,106,0,1,1,1,1,1
747,107,0,1,1,1,1,1
748,108,0,1,1,1,1,1
749,109,0,1,1,1,1,1
750,110,0,1,1,1,1,1
751,111,0,1,1,1,1,1
752,112,0,1,1,1,1,1
753,113,0,1,1,1,1,1
754,114,0,1,1,1,1,1
755,115,0,1,1,1,1,1
756,116,0,1,1,1,1,1
757,117,0,1,1,1,1,1
758,118,0,1,1,1,1,1
759,119,0,1,1,1,1,1
760,120,0,1,1,1,1,1
761,121,0,1,1,1,1,1
762,122,0,1,1,1,1,1
763,123,0,1,1,1,1,1
764,124,0,1,1,1,1,1
765,125,0,1,1,1,1,1
766,126,0,1,1,1,1,1
767,127,0,1,1,1,1,1
768,0,0,1,1,1,1,1
769,1,0,1,1,1,1,1
770,2,0,1,1,1,1,1
771,3,0,1,1,1,1,1
772,4,0,1,1,1,1,1
773,5,0,1,1,1,1,1
774,6,0,1,1,1,1,1
775,7,0,1,1,1,1,1
776,8,0,1,1,1,1,1
777,9,0,1,1,1,1,1
778,10,0,1,1,1,1,1
779,11,0,1,1,1,1,1
780,12,0,1,1,1,1,1
781,13,0,1,1,1,1,1
782,14,0,1,1,1,1,1
783,15,0,1,1,1,1,1
784,16,0,1,1,1,1,1
785,17,0,1,1,1,1,1
786,18,0,1,1,1,1,1
787,19,0,1,1,1,1,1
788,20,0,1,1,1,1,1
789,21,0,1,1,1,1,1
790,22,0,1,1,1,1,1
791,23,0,1,1,1,1,1
792,24,0,1,1,1,1,1
793,25,0,1,1,1,1,1
794,26,0,1,1,1,1,1
795,27,0,1,1,1,1,1
796,28,0,1,1,1,1,1
797,29,0,1,1,1,1,1
798,30,0,1,1,1,1,1
799,31,0,1,1,1,1,1
800,32,0,1,1,1,1,1
801,33,0,1,1,1,1,1
802,34,0,1,1,1,1,1
803,35,0,1,1,1,1,1
804,36,0,1,1,1,1,1
805,37,0,1,1,1,1,1
806,38,0,1,1,1,1,1
807,39,0,1,1,1,1,1
808,40,0,1,1,1,1,1
809,41,0,1,1,1,1,1
810,42,0,1,1,1,1,1
811,43,0,1,1,1,1,1
812,44,0,1,1,1,1,1
813,45,0,1,1,1,1,1
814,46,0,1,1,1,1,1
815,47,0,1,1,1,1,1
816,48,0,1,1,1,1,1
817,49,0,1,1,1,1,1
818,50,0,1,1,1,1,1
819,51,0,1,1,1,1,1
820,52,0,1,1,1,1,1
821,53,0,1,1,1,1,1
822,54,0,1,1,1,1,1
823,55,0,1,1,1,1,1
824,56,0,1,1,1,1,1
825,57,0,1,1,1,1,1
826,58,0,1,1,1,1,1
827,59,0,1,1,1,1,1
828,60,0,1,1,1,1,1
829,61,0,1,1,1,1,1
830,62,0,1,1,1,1,1
831,63,0,1,1,1,1,1
832,64,0,1,1,1,1,1
833,65,0,1,1,1,1,1
834,66,0,1,1,1,1,1
835,67,0,1,1,1,1,1
836,68,0,1,1,1,1,1
837,69,0,1,1,1,1,1
838,70,0,1,1,1,1,1
839,71,0,1,1,1,1,1
840,72,0,1,1,1,1,1
841,73,0,1,1,1,1,1
842,74,0,1,1,1,1,1
843,75,0,1,1,1,1,1
844,76,0,1,1,1,1,1
845,77,0,1,1,1,1,1
846,78,0,1,1,1,1,1
847,79,0,1,1,1,1,1
848,80,0,1,1,1,1,1
849,81,0,1,1,1,1,1
850,82,0,1,1,1,1,1
851,83,0,1,1,1,1,1
852,84,0,1,1,1,1,1
853,85,0,1,1,1,1,1
854,86,0,1,1,1,1,1
855,87,0,1,1,1,1,1
856,88,0,1,1,1,1,1
857,89,0,1,1,1,1,1
858,90,0,1,1,1,1,1
859,91,0,1,1,1,1,1
860,92,0,1,1,1,1,1
861,93,0,1,1,1,1,1
862,94,0,1,1,1,1,1
863,95,0,1,1,1,1,1
864,96,0,1,1,1,1,1
865,97,0,1,1,1,1,1
866,98,0,1,1,1,1,1
867,99,0,1,1,1,1,1
868,100,1,1,1,1,1,1
869,101,0,1,1,1,1,1
870,102,0,1,1,1,1,1
871,103,0,1,1,1,1,1
872,104,0,1,1,1,1,1
873,105,0,1,1,1,1,1
874,106,0,1,1,1,1,1
875,107,0,1,1,1,1,1
876,108,0,1,1,1,1,1
877,109,0,1,1,1,1,1
878,110,0,1,1,1,1,1
879,111,0,1,1,1,1,1
880,112,0,1,1,1,1,1
881,113,0,1,1,1,1,1
882,114,0,1,1,1,1,1
883,115,0,1,1,1,1,1
884,116,0,1,1,1,1,1
885,117,0,1,1,1,1,1
886,118,0,1,1,1,1,1
887,119,0,1,1,1,1,1
888,120,0,1,1,1,1,1
889,121,0,1,1,1,1,1
890,122,0,1,1,1,1,1
891,123,0,1,1,1,1,1
892,124,0,1,1,1,1,1
893,125,0,1,1,1,1,1
894,126,0,1,1,1,1,1
895,127,0,1,1,1,1,1
896,0,0,1,1,1,1,1
897,1,0,1,1,1,1,1
898,2,0,1,1,1,1,1
899,3,0,1,1,1,1,1
900,4,0,1,1,1,1,1
901,5,0,1,1,1,1,1
902,6,0,1,1,1,1,1
903,7,0,1,1,1,1,1
904,8,0,1,1,1,1,1
905,9,0,1,1,1,1,1
906,10,0,1,1,1,1,1
907,11,0,1,1,1,1,1
908,12,0,1,1,1,1,1
909,13,0,1,1,1,1,1
910,14,0,1,1,1,1,1
911,15,0,1,1,1,1,1
912,16,0,1,1,1,1,1
913,17,0,1,1,1,1,1
914,18,0,1,1,1,1,1
915,19,0,1,1,1,1,1
916,20,0,1,1,1,1,1
917,21,0,1,1,1,1,1
918,22,0,1,1,1,1,1
919,23,0,1,1,1,1,1
920,24,0,1,1,1,1,1
921,25,0,1,1,1,1,1
922,26,0,1,1,1,1,1
923,27,0,1,1,1,1,1
924,28,0,1,1,1,1,1
925,29,0,1,1,1,1,1
926,30,0,1,1,1,1,1
927,31,0,1,1,1,1,1
928,32,0,1,1,1,1,1
929,33,0,1,1,1,1,1
930,34,0,1,1,1,1,1
931,35,0,1,1,1,1,1
932,36,0,1,1,1,1,1
933,37,0,1,1,1,1,1
934,38,0,1,1,1,1,1
935,39,0,1,1,1,1,1
936,40,0,1,1,1,1,1
937,41,0,1,1,1,1,1
938,42,0,1,1,1,1,1
939,43,0,1,1,1,1,1
940,44,0,1,1,1,1,1
941,45,0,1,1,1,1,1
942,46,0,1,1,1,1,1
943,47,0,1,1,1,1,1
944,48,0,1,1,1,1,1
945,49,0,1,1,1,1,1
946,50,0,1,1,1,1,1
947,51,0,1,1,1,1,1
948,52,0,1,1,1,1,1
949,53,0,1,1,1,1,1
950,54,0,1,1,1,1,1
951,55,0,1,1,1,1,1
952,56,0,1,1,1,1,1
953,57,0,1,1,1,1,1
954,58,0,1,1,1,1,1
955,59,0,1,1,1,1,1
956,60,0,1,1,1,1,1
957,61,0,1,1,1,1,1
958,62,0,1,1,1,1,1
959,63,0,1,1,1,1,1
960,64,0,1,1,1,1,1
961,65,0,1,1,1,1,1
962,66,0,1,1,1,1,1
963,67,0,1,1,1,1,1
964,68,0,1,1,1,1,1
965,69,0,1,1,1,1,1
966,70,0,1,1,1,1,1
967,71,0,1,1,1,1,1
968,72,0,1,1,1,1,1
969,73,0,1,1,1,1,1
970,74,0,1,1,1,1,1
971,75,0,1,1,1,1,1
972,76,0,1,1,1,1,1
973,77,0,1,1,1,1,1
974,78,0,1,1,1,1,1
975,79,0,1,1,1,1,1
976,80,0,1,1,1,1,1
977,81,0,1,1,1,1,1
978,82,0,1,1,1,1,1
979,83,0,1,1,1,1,1
980,84,0,1,1,1,1,1
981,85,0,1,1,1,1,1
982,86,0,1,1,1,1,1
983,87,0,1,1,1,1,1
984,88,0,1,1,1,1,1
985,89,0,1,1,1,1,1
986,90,0,1,1,1,1,1
